T1EBC 29479:396 SEGGER J-Link V6.30h Log File (0003ms, 131126ms total)
T1EBC 29479:396 DLL Compiled: Mar 16 2018 18:02:51 (0003ms, 131126ms total)
T1EBC 29479:396 Logging started @ 2019-03-21 18:01 (0003ms, 131126ms total)
T1EBC 29479:399 JLINK_SetWarnOutHandler(...) (0000ms, 131126ms total)
T1EBC 29479:399 JLINK_OpenEx(...)
Firmware: J-Link V9 compiled Jun  2 2222 22:22:22
Hardware: V9.40
S/N: 59401308
Feature(s): GDB, RDI, FlashBP, FlashDL, JFlash, RDDI
TELNET listener socket opened on port 19021Device "APOLLO512-KCR" selected.WEBSRV 
Starting webserver (0723ms, 131849ms total)
T1EBC 29479:399 WEBSRV Webserver running on local port 19081 (0723ms, 131849ms total)
T1EBC 29479:399   returns O.K. (0723ms, 131849ms total)
T1EBC 29480:122 JLINK_GetEmuCaps()  returns 0xB9FF7BBF (0000ms, 131849ms total)
T1EBC 29480:188 JLINK_TIF_GetAvailable(...) (0091ms, 131940ms total)
T1EBC 29480:279 JLINK_SetErrorOutHandler(...) (0000ms, 131940ms total)
T1EBC 29480:279 JLINK_ExecCommand("ProjectFile = "F:\DrL\02_project\02_H002\02_Softwave\H002_NEW\trunk\H002_Public\Keil\JLinkSettings.ini"", ...). Device "APOLLO512-KCR" selected.  returns 0x00 (0024ms, 131964ms total)
T1EBC 29480:312 JLINK_ExecCommand("Device = AMAPH1KK-KBR", ...). Device "APOLLO512-KCR" selected.  returns 0x00 (0009ms, 131973ms total)
T1EBC 29480:321 JLINK_ExecCommand("DisableConnectionTimeout", ...).   returns 0x01 (0000ms, 131973ms total)
T1EBC 29480:321 JLINK_GetHardwareVersion()  returns 0x16F30 (0000ms, 131973ms total)
T1EBC 29480:321 JLINK_GetDLLVersion()  returns 63008 (0000ms, 131973ms total)
T1EBC 29480:321 JLINK_GetFirmwareString(...) (0000ms, 131973ms total)
T1EBC 29480:331 JLINK_GetDLLVersion()  returns 63008 (0000ms, 131973ms total)
T1EBC 29480:331 JLINK_GetCompileDateTime() (0000ms, 131973ms total)
T1EBC 29480:333 JLINK_GetFirmwareString(...) (0000ms, 131973ms total)
T1EBC 29480:335 JLINK_GetHardwareVersion()  returns 0x16F30 (0000ms, 131973ms total)
T1EBC 29480:345 JLINK_TIF_Select(JLINKARM_TIF_SWD)  returns 0x00 (0257ms, 132230ms total)
T1EBC 29480:602 JLINK_SetSpeed(5000) (0103ms, 132333ms total)
T1EBC 29480:705 JLINK_GetId() >0x10B TIF>Found SW-DP with ID 0x2BA01477 >0x0D TIF> >0x28 TIF> >0x0D TIF> >0x28 TIF> >0x0D TIF> >0x28 TIF> >0x0D TIF> >0x28 TIF> >0x0D TIF> >0x21 TIF> >0x0D TIF> >0x28 TIF>Scanning AP map to find all available APs >0x0D TIF> >0x28 TIF> >0x0D TIF> >0x21 TIF> >0x0D TIF> >0x21 TIF> >0x0D TIF> >0x28 TIF> >0x0D TIF> >0x21 TIF> >0x0D TIF> >0x21 TIF>AP[1]: Stopped AP scan as end of AP map has been reachedAP[0]: AHB-AP (IDR: 0x24770011)Iterating through AP map to find AHB-AP to use
 >0x42 TIF> >0x28 TIF> >0x0D TIF> >0x28 TIF> >0x0D TIF> >0x21 TIF> >0x0D TIF> >0x21 TIF> >0x42 TIF> >0x28 TIF> >0x0D TIF> >0x28 TIF> >0x0D TIF> >0x28 TIF> >0x0D TIF> >0x21 TIF> >0x0D TIF> >0x21 TIF>AP[0]: Core foundAP[0]: AHB-AP ROM base: 0xE00FF000 >0x0D TIF> >0x28 TIF> >0x0D TIF> >0x28 TIF> >0x0D TIF> >0x28 TIF> >0x0D TIF> >0x21 TIF> >0x0D TIF> >0x21 TIF>CPUID register: 0x410FC241. Implementer code: 0x41 (ARM)Found Cortex-M4 r0p1, Little endian. -- CPU_ReadMem(4 bytes @ 0xE000EDF0)
 -- CPU_ReadMem(4 bytes @ 0xE0002000)FPUnit: 6 code (BP) slots and 2 literal slots -- CPU_ReadMem(4 bytes @ 0xE000EDFC) -- CPU_ReadMem(4 bytes @ 0xE0001000) -- CPU_WriteMem(4 bytes @ 0xE0001000) -- CPU_ReadMem(4 bytes @ 0xE000ED88) -- CPU_WriteMem(4 bytes @ 0xE000ED88) -- CPU_ReadMem(4 bytes @ 0xE000ED88) -- CPU_WriteMem(4 bytes @ 0xE000ED88)CoreSight components:ROMTbl[0] @ E00FF000 -- CPU_ReadMem(16 bytes @ 0xE00FF000) -- CPU_ReadMem(16 bytes @ 0xE000EFF0) -- CPU_ReadMem(16 bytes @ 0xE000EFE0)
ROMTbl[0][0]: E000E000, CID: B105E00D, PID: 000BB00C SCS-M7 -- CPU_ReadMem(16 bytes @ 0xE0001FF0) -- CPU_ReadMem(16 bytes @ 0xE0001FE0)ROMTbl[0][1]: E0001000, CID: B105E00D, PID: 003BB002 DWT -- CPU_ReadMem(16 bytes @ 0xE0002FF0) -- CPU_ReadMem(16 bytes @ 0xE0002FE0)ROMTbl[0][2]: E0002000, CID: B105E00D, PID: 002BB003 FPB -- CPU_ReadMem(16 bytes @ 0xE0000FF0) -- CPU_ReadMem(16 bytes @ 0xE0000FE0)ROMTbl[0][3]: E0000000, CID: B105E00D, PID: 003BB001 ITM -- CPU_ReadMem(16 bytes @ 0xE00FF010)
 -- CPU_ReadMem(16 bytes @ 0xE0040FF0) -- CPU_ReadMem(16 bytes @ 0xE0040FE0)ROMTbl[0][4]: E0040000, CID: B105900D, PID: 000BB9A1 TPIU >0x0D TIF> >0x21 TIF>  returns 0x2BA01477 (0518ms, 132851ms total)
T1EBC 29481:223 JLINK_GetDLLVersion()  returns 63008 (0000ms, 132851ms total)
T1EBC 29481:278 JLINK_CORE_GetFound()  returns 0xE0000FF (0000ms, 132851ms total)
T1EBC 29481:278 JLINK_GetDebugInfo(0x100 = JLINKARM_ROM_TABLE_ADDR_INDEX) -- Value=0xE00FF000  returns 0x00 (0000ms, 132851ms total)
T1EBC 29481:297 JLINK_GetDebugInfo(0x100 = JLINKARM_ROM_TABLE_ADDR_INDEX) -- Value=0xE00FF000  returns 0x00 (0000ms, 132851ms total)
T1EBC 29481:298 JLINK_GetDebugInfo(0x101 = JLINKARM_DEBUG_INFO_ETM_ADDR_INDEX) -- Value=0x00000000  returns 0x00 (0000ms, 132852ms total)
T1EBC 29481:298 JLINK_ReadMemEx(0xE0041FF0, 0x0010 Bytes, ..., Flags = 0x02000004) -- CPU_ReadMem(16 bytes @ 0xE0041FF0) - Data: 00 00 00 00 00 00 00 00 00 00 00 00 00 00 00 00  returns 0x10 (0099ms, 132951ms total)
T1EBC 29481:397 JLINK_GetDebugInfo(0x102 = JLINKARM_DEBUG_INFO_MTB_ADDR_INDEX) -- Value=0x00000000  returns 0x00 (0000ms, 132951ms total)
T1EBC 29481:397 JLINK_GetDebugInfo(0x103 = JLINKARM_DEBUG_INFO_TPIU_ADDR_INDEX) -- Value=0xE0040000  returns 0x00 (0000ms, 132951ms total)
T1EBC 29481:397 JLINK_GetDebugInfo(0x104 = JLINKARM_DEBUG_INFO_ITM_ADDR_INDEX) -- Value=0xE0000000  returns 0x00 (0000ms, 132951ms total)
T1EBC 29481:397 JLINK_GetDebugInfo(0x105 = JLINKARM_DEBUG_INFO_DWT_ADDR_INDEX) -- Value=0xE0001000  returns 0x00 (0000ms, 132951ms total)
T1EBC 29481:397 JLINK_GetDebugInfo(0x106 = JLINKARM_DEBUG_INFO_FPB_ADDR_INDEX) -- Value=0xE0002000  returns 0x00 (0000ms, 132951ms total)
T1EBC 29481:397 JLINK_GetDebugInfo(0x107 = JLINKARM_DEBUG_INFO_NVIC_ADDR_INDEX) -- Value=0xE000E000  returns 0x00 (0000ms, 132951ms total)
T1EBC 29481:397 JLINK_GetDebugInfo(0x10C = JLINKARM_DEBUG_INFO_DBG_ADDR_INDEX) -- Value=0xE000EDF0  returns 0x00 (0001ms, 132952ms total)
T1EBC 29481:398 JLINK_GetDebugInfo(0x01 = Unknown) -- Value=0x00000001  returns 0x00 (0000ms, 132952ms total)
T1EBC 29481:398 JLINK_ReadMemU32(0xE000ED00, 0x0001 Items, ...) -- CPU_ReadMem(4 bytes @ 0xE000ED00) - Data: 41 C2 0F 41  returns 0x01 (0204ms, 133156ms total)
T1EBC 29481:602 JLINK_GetDebugInfo(0x10F = JLINKARM_DEBUG_INFO_HAS_CORTEX_M_SECURITY_EXT_INDEX) -- Value=0x00000000  returns 0x00 (0000ms, 133156ms total)
T1EBC 29481:602 JLINK_SetResetType(JLINKARM_CM3_RESET_TYPE_NORMAL)  returns JLINKARM_CM3_RESET_TYPE_NORMAL (0000ms, 133156ms total)
T1EBC 29481:602 JLINK_Reset() J-Link Script File: Executing ResetTarget() JDEC PID 0x000000CFAmbiq Apollo3 ResetTargetBootldr = 0x04000000Secure Part.Secure Chip. Bootloader needs to run which will then halt when finish.CPU halted after reset. Num Tries = 0x00000000 -- CPU_WriteMem(4 bytes @ 0xE0002000) -- CPU_ReadMem(4 bytes @ 0xE000EDFC) -- CPU_WriteMem(4 bytes @ 0xE000EDFC) -- CPU_ReadMem(4 bytes @ 0xE0001000) (0865ms, 134021ms total)
T1EBC 29482:467 JLINK_Halt()  returns 0x00 (0000ms, 134021ms total)
T1EBC 29482:487 JLINK_ReadMemU32(0xE000EDF0, 0x0001 Items, ...) -- CPU_ReadMem(4 bytes @ 0xE000EDF0) - Data: 03 00 03 00  returns 0x01 (0004ms, 134025ms total)
T1EBC 29482:491 JLINK_WriteU32(0xE000EDF0, 0xA05F0003) -- CPU_WriteMem(4 bytes @ 0xE000EDF0)  returns 0x00 (0002ms, 134027ms total)
T1EBC 29482:494 JLINK_WriteU32(0xE000EDFC, 0x01000000) -- CPU_WriteMem(4 bytes @ 0xE000EDFC)  returns 0x00 (0002ms, 134029ms total)
T1EBC 29482:520 JLINK_GetHWStatus(...)  returns 0x00 (0002ms, 134031ms total)
T1EBC 29482:531 JLINK_GetNumBPUnits(Type = 0xFFFFFF00)  returns 0x06 (0000ms, 134031ms total)
T1EBC 29482:531 JLINK_GetNumBPUnits(Type = 0xF0)  returns 0x2000 (0000ms, 134031ms total)
T1EBC 29482:531 JLINK_GetNumWPUnits()  returns 0x04 (0000ms, 134031ms total)
T1EBC 29482:542 JLINK_GetSpeed()  returns 0xFA0 (0000ms, 134031ms total)
T1EBC 29482:547 JLINK_ReadMemU32(0xE000E004, 0x0001 Items, ...) -- CPU_ReadMem(4 bytes @ 0xE000E004) - Data: 00 00 00 00  returns 0x01 (0002ms, 134033ms total)
T1EBC 29482:549 JLINK_ReadMemU32(0xE000E004, 0x0001 Items, ...) -- CPU_ReadMem(4 bytes @ 0xE000E004) - Data: 00 00 00 00  returns 0x01 (0002ms, 134035ms total)
T1EBC 29482:551 JLINK_WriteMemEx(0xE0001000, 0x001C Bytes, ..., Flags = 0x02000004) - Data: 01 00 00 00 00 00 00 00 00 00 00 00 00 00 00 00 ... -- CPU_WriteMem(28 bytes @ 0xE0001000)  returns 0x1C (0002ms, 134037ms total)
T1EBC 29482:553 JLINK_Halt()  returns 0x00 (0000ms, 134037ms total)
T1EBC 29482:553 JLINK_IsHalted()  returns TRUE (0000ms, 134037ms total)
T1EBC 29482:558 JLINK_WriteMem(0x10000000, 0x0150 Bytes, ...) - Data: 00 BE 0A E0 0D 78 2D 06 68 40 08 24 40 00 00 D3 ... -- CPU_WriteMem(336 bytes @ 0x10000000)  returns 0x150 (0014ms, 134051ms total)
T1EBC 29482:573 JLINK_WriteReg(R0, 0x00000000)  returns 0x00 (0000ms, 134051ms total)
T1EBC 29482:573 JLINK_WriteReg(R1, 0x00B71B00)  returns 0x00 (0000ms, 134051ms total)
T1EBC 29482:573 JLINK_WriteReg(R2, 0x00000001)  returns 0x00 (0000ms, 134051ms total)
T1EBC 29482:573 JLINK_WriteReg(R3, 0x00000000)  returns 0x00 (0000ms, 134051ms total)
T1EBC 29482:573 JLINK_WriteReg(R4, 0x00000000)  returns 0x00 (0000ms, 134051ms total)
T1EBC 29482:573 JLINK_WriteReg(R5, 0x00000000)  returns 0x00 (0000ms, 134051ms total)
T1EBC 29482:573 JLINK_WriteReg(R6, 0x00000000)  returns 0x00 (0000ms, 134051ms total)
T1EBC 29482:573 JLINK_WriteReg(R7, 0x00000000)  returns 0x00 (0000ms, 134051ms total)
T1EBC 29482:573 JLINK_WriteReg(R8, 0x00000000)  returns 0x00 (0000ms, 134051ms total)
T1EBC 29482:573 JLINK_WriteReg(R9, 0x1000012C)  returns 0x00 (0000ms, 134051ms total)
T1EBC 29482:573 JLINK_WriteReg(R10, 0x00000000)  returns 0x00 (0000ms, 134051ms total)
T1EBC 29482:573 JLINK_WriteReg(R11, 0x00000000)  returns 0x00 (0000ms, 134051ms total)
T1EBC 29482:573 JLINK_WriteReg(R12, 0x00000000)  returns 0x00 (0000ms, 134051ms total)
T1EBC 29482:573 JLINK_WriteReg(R13 (SP), 0x10004000)  returns 0x00 (0000ms, 134051ms total)
T1EBC 29482:573 JLINK_WriteReg(R14, 0x10000001)  returns 0x00 (0000ms, 134051ms total)
T1EBC 29482:573 JLINK_WriteReg(R15 (PC), 0x10000038)  returns 0x00 (0000ms, 134051ms total)
T1EBC 29482:573 JLINK_WriteReg(XPSR, 0x01000000)  returns 0x00 (0000ms, 134051ms total)
T1EBC 29482:573 JLINK_WriteReg(MSP, 0x10004000)  returns 0x00 (0000ms, 134051ms total)
T1EBC 29482:573 JLINK_WriteReg(PSP, 0x10004000)  returns 0x00 (0000ms, 134051ms total)
T1EBC 29482:573 JLINK_WriteReg(CFBP, 0x00000000)  returns 0x00 (0000ms, 134051ms total)
T1EBC 29482:573 JLINK_SetBPEx(Addr = 0x10000000, Type = 0xFFFFFFF2)  returns 0x00000001 (0000ms, 134051ms total)
T1EBC 29482:573 JLINK_Go() -- CPU_WriteMem(4 bytes @ 0xE0002000) -- CPU_ReadMem(4 bytes @ 0xE0001000) -- CPU_WriteMem(4 bytes @ 0xE0002008) -- CPU_WriteMem(4 bytes @ 0xE000200C) -- CPU_WriteMem(4 bytes @ 0xE0002010) -- CPU_WriteMem(4 bytes @ 0xE0002014) -- CPU_WriteMem(4 bytes @ 0xE0002018) -- CPU_WriteMem(4 bytes @ 0xE000201C) -- CPU_WriteMem(4 bytes @ 0xE0001004) (0010ms, 134061ms total)
T1EBC 29482:583 JLINK_IsHalted()  returns TRUE (0022ms, 134083ms total)
T1EBC 29482:606 JLINK_ReadReg(R15 (PC))  returns 0x10000000 (0000ms, 134061ms total)
T1EBC 29482:606 JLINK_ClrBPEx(BPHandle = 0x00000001)  returns 0x00 (0000ms, 134061ms total)
T1EBC 29482:606 JLINK_ReadReg(R0)  returns 0x00000000 (0000ms, 134061ms total)
T1EBC 29482:606 JLINK_WriteReg(R0, 0x0000C000)  returns 0x00 (0000ms, 134061ms total)
T1EBC 29482:606 JLINK_WriteReg(R1, 0x00002000)  returns 0x00 (0000ms, 134061ms total)
T1EBC 29482:606 JLINK_WriteReg(R2, 0x000000FF)  returns 0x00 (0000ms, 134061ms total)
T1EBC 29482:606 JLINK_WriteReg(R3, 0x00000000)  returns 0x00 (0000ms, 134061ms total)
T1EBC 29482:606 JLINK_WriteReg(R4, 0x00000000)  returns 0x00 (0000ms, 134061ms total)
T1EBC 29482:606 JLINK_WriteReg(R5, 0x00000000)  returns 0x00 (0000ms, 134061ms total)
T1EBC 29482:606 JLINK_WriteReg(R6, 0x00000000)  returns 0x00 (0000ms, 134061ms total)
T1EBC 29482:606 JLINK_WriteReg(R7, 0x00000000)  returns 0x00 (0000ms, 134061ms total)
T1EBC 29482:606 JLINK_WriteReg(R8, 0x00000000)  returns 0x00 (0000ms, 134061ms total)
T1EBC 29482:606 JLINK_WriteReg(R9, 0x1000012C)  returns 0x00 (0000ms, 134061ms total)
T1EBC 29482:606 JLINK_WriteReg(R10, 0x00000000)  returns 0x00 (0000ms, 134061ms total)
T1EBC 29482:606 JLINK_WriteReg(R11, 0x00000000)  returns 0x00 (0000ms, 134061ms total)
T1EBC 29482:606 JLINK_WriteReg(R12, 0x00000000)  returns 0x00 (0000ms, 134061ms total)
T1EBC 29482:606 JLINK_WriteReg(R13 (SP), 0x10004000)  returns 0x00 (0000ms, 134061ms total)
T1EBC 29482:606 JLINK_WriteReg(R14, 0x10000001)  returns 0x00 (0000ms, 134061ms total)
T1EBC 29482:606 JLINK_WriteReg(R15 (PC), 0x10000020)  returns 0x00 (0000ms, 134061ms total)
T1EBC 29482:606 JLINK_WriteReg(XPSR, 0x01000000)  returns 0x00 (0000ms, 134061ms total)
T1EBC 29482:606 JLINK_WriteReg(MSP, 0x10004000)  returns 0x00 (0000ms, 134061ms total)
T1EBC 29482:606 JLINK_WriteReg(PSP, 0x10004000)  returns 0x00 (0000ms, 134061ms total)
T1EBC 29482:606 JLINK_WriteReg(CFBP, 0x00000000)  returns 0x00 (0000ms, 134061ms total)
T1EBC 29482:606 JLINK_SetBPEx(Addr = 0x10000000, Type = 0xFFFFFFF2)  returns 0x00000002 (0000ms, 134061ms total)
T1EBC 29482:606 JLINK_Go() -- CPU_WriteMem(4 bytes @ 0xE0002000) -- CPU_ReadMem(4 bytes @ 0xE0001000) (0009ms, 134070ms total)
T1EBC 29482:615 JLINK_IsHalted()  returns TRUE (0021ms, 134091ms total)
T1EBC 29482:636 JLINK_ReadReg(R15 (PC))  returns 0x10000000 (0000ms, 134070ms total)
T1EBC 29482:636 JLINK_ClrBPEx(BPHandle = 0x00000002)  returns 0x00 (0000ms, 134070ms total)
T1EBC 29482:636 JLINK_ReadReg(R0)  returns 0x00000001 (0000ms, 134070ms total)
T1EBC 29482:636 JLINK_WriteReg(R0, 0x0000C000)  returns 0x00 (0000ms, 134070ms total)
T1EBC 29482:636 JLINK_WriteReg(R1, 0x00002000)  returns 0x00 (0000ms, 134070ms total)
T1EBC 29482:636 JLINK_WriteReg(R2, 0x000000FF)  returns 0x00 (0000ms, 134070ms total)
T1EBC 29482:636 JLINK_WriteReg(R3, 0x00000000)  returns 0x00 (0000ms, 134070ms total)
T1EBC 29482:636 JLINK_WriteReg(R4, 0x00000000)  returns 0x00 (0000ms, 134070ms total)
T1EBC 29482:636 JLINK_WriteReg(R5, 0x00000000)  returns 0x00 (0000ms, 134070ms total)
T1EBC 29482:636 JLINK_WriteReg(R6, 0x00000000)  returns 0x00 (0000ms, 134070ms total)
T1EBC 29482:636 JLINK_WriteReg(R7, 0x00000000)  returns 0x00 (0000ms, 134070ms total)
T1EBC 29482:636 JLINK_WriteReg(R8, 0x00000000)  returns 0x00 (0000ms, 134070ms total)
T1EBC 29482:636 JLINK_WriteReg(R9, 0x1000012C)  returns 0x00 (0000ms, 134070ms total)
T1EBC 29482:636 JLINK_WriteReg(R10, 0x00000000)  returns 0x00 (0000ms, 134070ms total)
T1EBC 29482:636 JLINK_WriteReg(R11, 0x00000000)  returns 0x00 (0000ms, 134070ms total)
T1EBC 29482:636 JLINK_WriteReg(R12, 0x00000000)  returns 0x00 (0000ms, 134070ms total)
T1EBC 29482:636 JLINK_WriteReg(R13 (SP), 0x10004000)  returns 0x00 (0000ms, 134070ms total)
T1EBC 29482:636 JLINK_WriteReg(R14, 0x10000001)  returns 0x00 (0000ms, 134070ms total)
T1EBC 29482:636 JLINK_WriteReg(R15 (PC), 0x1000007C)  returns 0x00 (0000ms, 134070ms total)
T1EBC 29482:636 JLINK_WriteReg(XPSR, 0x01000000)  returns 0x00 (0000ms, 134070ms total)
T1EBC 29482:636 JLINK_WriteReg(MSP, 0x10004000)  returns 0x00 (0000ms, 134070ms total)
T1EBC 29482:636 JLINK_WriteReg(PSP, 0x10004000)  returns 0x00 (0000ms, 134070ms total)
T1EBC 29482:636 JLINK_WriteReg(CFBP, 0x00000000)  returns 0x00 (0000ms, 134070ms total)
T1EBC 29482:636 JLINK_SetBPEx(Addr = 0x10000000, Type = 0xFFFFFFF2)  returns 0x00000003 (0000ms, 134070ms total)
T1EBC 29482:636 JLINK_Go() -- CPU_WriteMem(4 bytes @ 0xE0002000) -- CPU_ReadMem(4 bytes @ 0xE0001000) (0008ms, 134078ms total)
T1EBC 29482:644 JLINK_IsHalted()  returns TRUE (0022ms, 134100ms total)
T1EBC 29482:666 JLINK_ReadReg(R15 (PC))  returns 0x10000000 (0000ms, 134078ms total)
T1EBC 29482:666 JLINK_ClrBPEx(BPHandle = 0x00000003)  returns 0x00 (0000ms, 134078ms total)
T1EBC 29482:666 JLINK_ReadReg(R0)  returns 0x00000000 (0000ms, 134078ms total)
T1EBC 29482:667 JLINK_WriteReg(R0, 0x0000E000)  returns 0x00 (0000ms, 134078ms total)
T1EBC 29482:667 JLINK_WriteReg(R1, 0x00002000)  returns 0x00 (0000ms, 134078ms total)
T1EBC 29482:667 JLINK_WriteReg(R2, 0x000000FF)  returns 0x00 (0000ms, 134078ms total)
T1EBC 29482:667 JLINK_WriteReg(R3, 0x00000000)  returns 0x00 (0001ms, 134079ms total)
T1EBC 29482:668 JLINK_WriteReg(R4, 0x00000000)  returns 0x00 (0000ms, 134079ms total)
T1EBC 29482:668 JLINK_WriteReg(R5, 0x00000000)  returns 0x00 (0000ms, 134079ms total)
T1EBC 29482:668 JLINK_WriteReg(R6, 0x00000000)  returns 0x00 (0000ms, 134079ms total)
T1EBC 29482:668 JLINK_WriteReg(R7, 0x00000000)  returns 0x00 (0000ms, 134079ms total)
T1EBC 29482:668 JLINK_WriteReg(R8, 0x00000000)  returns 0x00 (0000ms, 134079ms total)
T1EBC 29482:668 JLINK_WriteReg(R9, 0x1000012C)  returns 0x00 (0000ms, 134079ms total)
T1EBC 29482:668 JLINK_WriteReg(R10, 0x00000000)  returns 0x00 (0000ms, 134079ms total)
T1EBC 29482:668 JLINK_WriteReg(R11, 0x00000000)  returns 0x00 (0000ms, 134079ms total)
T1EBC 29482:668 JLINK_WriteReg(R12, 0x00000000)  returns 0x00 (0000ms, 134079ms total)
T1EBC 29482:668 JLINK_WriteReg(R13 (SP), 0x10004000)  returns 0x00 (0000ms, 134079ms total)
T1EBC 29482:668 JLINK_WriteReg(R14, 0x10000001)  returns 0x00 (0000ms, 134079ms total)
T1EBC 29482:668 JLINK_WriteReg(R15 (PC), 0x10000020)  returns 0x00 (0000ms, 134079ms total)
T1EBC 29482:668 JLINK_WriteReg(XPSR, 0x01000000)  returns 0x00 (0000ms, 134079ms total)
T1EBC 29482:668 JLINK_WriteReg(MSP, 0x10004000)  returns 0x00 (0000ms, 134079ms total)
T1EBC 29482:668 JLINK_WriteReg(PSP, 0x10004000)  returns 0x00 (0000ms, 134079ms total)
T1EBC 29482:668 JLINK_WriteReg(CFBP, 0x00000000)  returns 0x00 (0000ms, 134079ms total)
T1EBC 29482:668 JLINK_SetBPEx(Addr = 0x10000000, Type = 0xFFFFFFF2)  returns 0x00000004 (0000ms, 134079ms total)
T1EBC 29482:668 JLINK_Go() -- CPU_WriteMem(4 bytes @ 0xE0002000) -- CPU_ReadMem(4 bytes @ 0xE0001000) (0007ms, 134086ms total)
T1EBC 29482:675 JLINK_IsHalted()  returns TRUE (0021ms, 134107ms total)
T1EBC 29482:696 JLINK_ReadReg(R15 (PC))  returns 0x10000000 (0000ms, 134086ms total)
T1EBC 29482:696 JLINK_ClrBPEx(BPHandle = 0x00000004)  returns 0x00 (0000ms, 134086ms total)
T1EBC 29482:696 JLINK_ReadReg(R0)  returns 0x00000001 (0000ms, 134086ms total)
T1EBC 29482:696 JLINK_WriteReg(R0, 0x0000E000)  returns 0x00 (0000ms, 134086ms total)
T1EBC 29482:696 JLINK_WriteReg(R1, 0x00002000)  returns 0x00 (0000ms, 134086ms total)
T1EBC 29482:696 JLINK_WriteReg(R2, 0x000000FF)  returns 0x00 (0000ms, 134086ms total)
T1EBC 29482:696 JLINK_WriteReg(R3, 0x00000000)  returns 0x00 (0000ms, 134086ms total)
T1EBC 29482:696 JLINK_WriteReg(R4, 0x00000000)  returns 0x00 (0000ms, 134086ms total)
T1EBC 29482:696 JLINK_WriteReg(R5, 0x00000000)  returns 0x00 (0000ms, 134086ms total)
T1EBC 29482:696 JLINK_WriteReg(R6, 0x00000000)  returns 0x00 (0000ms, 134086ms total)
T1EBC 29482:696 JLINK_WriteReg(R7, 0x00000000)  returns 0x00 (0000ms, 134086ms total)
T1EBC 29482:696 JLINK_WriteReg(R8, 0x00000000)  returns 0x00 (0000ms, 134086ms total)
T1EBC 29482:696 JLINK_WriteReg(R9, 0x1000012C)  returns 0x00 (0000ms, 134086ms total)
T1EBC 29482:696 JLINK_WriteReg(R10, 0x00000000)  returns 0x00 (0000ms, 134086ms total)
T1EBC 29482:696 JLINK_WriteReg(R11, 0x00000000)  returns 0x00 (0000ms, 134086ms total)
T1EBC 29482:696 JLINK_WriteReg(R12, 0x00000000)  returns 0x00 (0000ms, 134086ms total)
T1EBC 29482:696 JLINK_WriteReg(R13 (SP), 0x10004000)  returns 0x00 (0000ms, 134086ms total)
T1EBC 29482:696 JLINK_WriteReg(R14, 0x10000001)  returns 0x00 (0000ms, 134086ms total)
T1EBC 29482:696 JLINK_WriteReg(R15 (PC), 0x1000007C)  returns 0x00 (0000ms, 134086ms total)
T1EBC 29482:696 JLINK_WriteReg(XPSR, 0x01000000)  returns 0x00 (0000ms, 134086ms total)
T1EBC 29482:696 JLINK_WriteReg(MSP, 0x10004000)  returns 0x00 (0000ms, 134086ms total)
T1EBC 29482:696 JLINK_WriteReg(PSP, 0x10004000)  returns 0x00 (0000ms, 134086ms total)
T1EBC 29482:696 JLINK_WriteReg(CFBP, 0x00000000)  returns 0x00 (0000ms, 134086ms total)
T1EBC 29482:696 JLINK_SetBPEx(Addr = 0x10000000, Type = 0xFFFFFFF2)  returns 0x00000005 (0000ms, 134086ms total)
T1EBC 29482:696 JLINK_Go() -- CPU_WriteMem(4 bytes @ 0xE0002000) -- CPU_ReadMem(4 bytes @ 0xE0001000) (0007ms, 134093ms total)
T1EBC 29482:704 JLINK_IsHalted()  returns TRUE (0021ms, 134114ms total)
T1EBC 29482:725 JLINK_ReadReg(R15 (PC))  returns 0x10000000 (0000ms, 134093ms total)
T1EBC 29482:725 JLINK_ClrBPEx(BPHandle = 0x00000005)  returns 0x00 (0000ms, 134093ms total)
T1EBC 29482:725 JLINK_ReadReg(R0)  returns 0x00000000 (0000ms, 134093ms total)
T1EBC 29482:725 JLINK_WriteReg(R0, 0x00010000)  returns 0x00 (0000ms, 134093ms total)
T1EBC 29482:725 JLINK_WriteReg(R1, 0x00002000)  returns 0x00 (0000ms, 134093ms total)
T1EBC 29482:725 JLINK_WriteReg(R2, 0x000000FF)  returns 0x00 (0000ms, 134093ms total)
T1EBC 29482:725 JLINK_WriteReg(R3, 0x00000000)  returns 0x00 (0000ms, 134093ms total)
T1EBC 29482:725 JLINK_WriteReg(R4, 0x00000000)  returns 0x00 (0001ms, 134094ms total)
T1EBC 29482:726 JLINK_WriteReg(R5, 0x00000000)  returns 0x00 (0000ms, 134094ms total)
T1EBC 29482:726 JLINK_WriteReg(R6, 0x00000000)  returns 0x00 (0000ms, 134094ms total)
T1EBC 29482:726 JLINK_WriteReg(R7, 0x00000000)  returns 0x00 (0000ms, 134094ms total)
T1EBC 29482:726 JLINK_WriteReg(R8, 0x00000000)  returns 0x00 (0000ms, 134094ms total)
T1EBC 29482:726 JLINK_WriteReg(R9, 0x1000012C)  returns 0x00 (0000ms, 134094ms total)
T1EBC 29482:726 JLINK_WriteReg(R10, 0x00000000)  returns 0x00 (0000ms, 134094ms total)
T1EBC 29482:726 JLINK_WriteReg(R11, 0x00000000)  returns 0x00 (0000ms, 134094ms total)
T1EBC 29482:726 JLINK_WriteReg(R12, 0x00000000)  returns 0x00 (0000ms, 134094ms total)
T1EBC 29482:726 JLINK_WriteReg(R13 (SP), 0x10004000)  returns 0x00 (0000ms, 134094ms total)
T1EBC 29482:726 JLINK_WriteReg(R14, 0x10000001)  returns 0x00 (0000ms, 134094ms total)
T1EBC 29482:726 JLINK_WriteReg(R15 (PC), 0x10000020)  returns 0x00 (0000ms, 134094ms total)
T1EBC 29482:726 JLINK_WriteReg(XPSR, 0x01000000)  returns 0x00 (0000ms, 134094ms total)
T1EBC 29482:726 JLINK_WriteReg(MSP, 0x10004000)  returns 0x00 (0000ms, 134094ms total)
T1EBC 29482:726 JLINK_WriteReg(PSP, 0x10004000)  returns 0x00 (0000ms, 134094ms total)
T1EBC 29482:726 JLINK_WriteReg(CFBP, 0x00000000)  returns 0x00 (0000ms, 134094ms total)
T1EBC 29482:726 JLINK_SetBPEx(Addr = 0x10000000, Type = 0xFFFFFFF2)  returns 0x00000006 (0000ms, 134094ms total)
T1EBC 29482:726 JLINK_Go() -- CPU_WriteMem(4 bytes @ 0xE0002000) -- CPU_ReadMem(4 bytes @ 0xE0001000) (0006ms, 134100ms total)
T1EBC 29482:732 JLINK_IsHalted()  returns TRUE (0021ms, 134121ms total)
T1EBC 29482:753 JLINK_ReadReg(R15 (PC))  returns 0x10000000 (0000ms, 134100ms total)
T1EBC 29482:753 JLINK_ClrBPEx(BPHandle = 0x00000006)  returns 0x00 (0000ms, 134100ms total)
T1EBC 29482:753 JLINK_ReadReg(R0)  returns 0x00000001 (0000ms, 134100ms total)
T1EBC 29482:753 JLINK_WriteReg(R0, 0x00010000)  returns 0x00 (0000ms, 134100ms total)
T1EBC 29482:753 JLINK_WriteReg(R1, 0x00002000)  returns 0x00 (0000ms, 134100ms total)
T1EBC 29482:753 JLINK_WriteReg(R2, 0x000000FF)  returns 0x00 (0000ms, 134100ms total)
T1EBC 29482:753 JLINK_WriteReg(R3, 0x00000000)  returns 0x00 (0000ms, 134100ms total)
T1EBC 29482:753 JLINK_WriteReg(R4, 0x00000000)  returns 0x00 (0000ms, 134100ms total)
T1EBC 29482:753 JLINK_WriteReg(R5, 0x00000000)  returns 0x00 (0000ms, 134100ms total)
T1EBC 29482:753 JLINK_WriteReg(R6, 0x00000000)  returns 0x00 (0000ms, 134100ms total)
T1EBC 29482:753 JLINK_WriteReg(R7, 0x00000000)  returns 0x00 (0000ms, 134100ms total)
T1EBC 29482:753 JLINK_WriteReg(R8, 0x00000000)  returns 0x00 (0000ms, 134100ms total)
T1EBC 29482:753 JLINK_WriteReg(R9, 0x1000012C)  returns 0x00 (0000ms, 134100ms total)
T1EBC 29482:753 JLINK_WriteReg(R10, 0x00000000)  returns 0x00 (0000ms, 134100ms total)
T1EBC 29482:753 JLINK_WriteReg(R11, 0x00000000)  returns 0x00 (0000ms, 134100ms total)
T1EBC 29482:753 JLINK_WriteReg(R12, 0x00000000)  returns 0x00 (0000ms, 134100ms total)
T1EBC 29482:753 JLINK_WriteReg(R13 (SP), 0x10004000)  returns 0x00 (0000ms, 134100ms total)
T1EBC 29482:753 JLINK_WriteReg(R14, 0x10000001)  returns 0x00 (0000ms, 134100ms total)
T1EBC 29482:753 JLINK_WriteReg(R15 (PC), 0x1000007C)  returns 0x00 (0000ms, 134100ms total)
T1EBC 29482:753 JLINK_WriteReg(XPSR, 0x01000000)  returns 0x00 (0000ms, 134100ms total)
T1EBC 29482:753 JLINK_WriteReg(MSP, 0x10004000)  returns 0x00 (0000ms, 134100ms total)
T1EBC 29482:753 JLINK_WriteReg(PSP, 0x10004000)  returns 0x00 (0000ms, 134100ms total)
T1EBC 29482:753 JLINK_WriteReg(CFBP, 0x00000000)  returns 0x00 (0000ms, 134100ms total)
T1EBC 29482:753 JLINK_SetBPEx(Addr = 0x10000000, Type = 0xFFFFFFF2)  returns 0x00000007 (0000ms, 134100ms total)
T1EBC 29482:753 JLINK_Go() -- CPU_WriteMem(4 bytes @ 0xE0002000) -- CPU_ReadMem(4 bytes @ 0xE0001000) (0006ms, 134106ms total)
T1EBC 29482:759 JLINK_IsHalted()  returns TRUE (0021ms, 134127ms total)
T1EBC 29482:780 JLINK_ReadReg(R15 (PC))  returns 0x10000000 (0000ms, 134106ms total)
T1EBC 29482:780 JLINK_ClrBPEx(BPHandle = 0x00000007)  returns 0x00 (0000ms, 134106ms total)
T1EBC 29482:780 JLINK_ReadReg(R0)  returns 0x00000000 (0000ms, 134106ms total)
T1EBC 29482:783 JLINK_WriteReg(R0, 0x00012000)  returns 0x00 (0000ms, 134106ms total)
T1EBC 29482:783 JLINK_WriteReg(R1, 0x00002000)  returns 0x00 (0000ms, 134106ms total)
T1EBC 29482:783 JLINK_WriteReg(R2, 0x000000FF)  returns 0x00 (0000ms, 134106ms total)
T1EBC 29482:783 JLINK_WriteReg(R3, 0x00000000)  returns 0x00 (0000ms, 134106ms total)
T1EBC 29482:783 JLINK_WriteReg(R4, 0x00000000)  returns 0x00 (0000ms, 134106ms total)
T1EBC 29482:783 JLINK_WriteReg(R5, 0x00000000)  returns 0x00 (0000ms, 134106ms total)
T1EBC 29482:783 JLINK_WriteReg(R6, 0x00000000)  returns 0x00 (0000ms, 134106ms total)
T1EBC 29482:783 JLINK_WriteReg(R7, 0x00000000)  returns 0x00 (0000ms, 134106ms total)
T1EBC 29482:783 JLINK_WriteReg(R8, 0x00000000)  returns 0x00 (0000ms, 134106ms total)
T1EBC 29482:783 JLINK_WriteReg(R9, 0x1000012C)  returns 0x00 (0000ms, 134106ms total)
T1EBC 29482:783 JLINK_WriteReg(R10, 0x00000000)  returns 0x00 (0000ms, 134106ms total)
T1EBC 29482:783 JLINK_WriteReg(R11, 0x00000000)  returns 0x00 (0000ms, 134106ms total)
T1EBC 29482:783 JLINK_WriteReg(R12, 0x00000000)  returns 0x00 (0000ms, 134106ms total)
T1EBC 29482:783 JLINK_WriteReg(R13 (SP), 0x10004000)  returns 0x00 (0001ms, 134107ms total)
T1EBC 29482:784 JLINK_WriteReg(R14, 0x10000001)  returns 0x00 (0000ms, 134107ms total)
T1EBC 29482:784 JLINK_WriteReg(R15 (PC), 0x10000020)  returns 0x00 (0000ms, 134107ms total)
T1EBC 29482:784 JLINK_WriteReg(XPSR, 0x01000000)  returns 0x00 (0000ms, 134107ms total)
T1EBC 29482:784 JLINK_WriteReg(MSP, 0x10004000)  returns 0x00 (0000ms, 134107ms total)
T1EBC 29482:784 JLINK_WriteReg(PSP, 0x10004000)  returns 0x00 (0000ms, 134107ms total)
T1EBC 29482:784 JLINK_WriteReg(CFBP, 0x00000000)  returns 0x00 (0000ms, 134107ms total)
T1EBC 29482:784 JLINK_SetBPEx(Addr = 0x10000000, Type = 0xFFFFFFF2)  returns 0x00000008 (0000ms, 134107ms total)
T1EBC 29482:784 JLINK_Go() -- CPU_WriteMem(4 bytes @ 0xE0002000) -- CPU_ReadMem(4 bytes @ 0xE0001000) (0007ms, 134114ms total)
T1EBC 29482:791 JLINK_IsHalted()  returns TRUE (0004ms, 134118ms total)
T1EBC 29482:795 JLINK_ReadReg(R15 (PC))  returns 0x10000000 (0000ms, 134114ms total)
T1EBC 29482:795 JLINK_ClrBPEx(BPHandle = 0x00000008)  returns 0x00 (0000ms, 134114ms total)
T1EBC 29482:795 JLINK_ReadReg(R0)  returns 0x00000001 (0000ms, 134114ms total)
T1EBC 29482:795 JLINK_WriteReg(R0, 0x00012000)  returns 0x00 (0000ms, 134114ms total)
T1EBC 29482:795 JLINK_WriteReg(R1, 0x00002000)  returns 0x00 (0000ms, 134114ms total)
T1EBC 29482:795 JLINK_WriteReg(R2, 0x000000FF)  returns 0x00 (0000ms, 134114ms total)
T1EBC 29482:795 JLINK_WriteReg(R3, 0x00000000)  returns 0x00 (0000ms, 134114ms total)
T1EBC 29482:795 JLINK_WriteReg(R4, 0x00000000)  returns 0x00 (0000ms, 134114ms total)
T1EBC 29482:795 JLINK_WriteReg(R5, 0x00000000)  returns 0x00 (0000ms, 134114ms total)
T1EBC 29482:795 JLINK_WriteReg(R6, 0x00000000)  returns 0x00 (0000ms, 134114ms total)
T1EBC 29482:795 JLINK_WriteReg(R7, 0x00000000)  returns 0x00 (0000ms, 134114ms total)
T1EBC 29482:795 JLINK_WriteReg(R8, 0x00000000)  returns 0x00 (0000ms, 134114ms total)
T1EBC 29482:795 JLINK_WriteReg(R9, 0x1000012C)  returns 0x00 (0000ms, 134114ms total)
T1EBC 29482:795 JLINK_WriteReg(R10, 0x00000000)  returns 0x00 (0000ms, 134114ms total)
T1EBC 29482:795 JLINK_WriteReg(R11, 0x00000000)  returns 0x00 (0000ms, 134114ms total)
T1EBC 29482:795 JLINK_WriteReg(R12, 0x00000000)  returns 0x00 (0000ms, 134114ms total)
T1EBC 29482:795 JLINK_WriteReg(R13 (SP), 0x10004000)  returns 0x00 (0000ms, 134114ms total)
T1EBC 29482:795 JLINK_WriteReg(R14, 0x10000001)  returns 0x00 (0000ms, 134114ms total)
T1EBC 29482:795 JLINK_WriteReg(R15 (PC), 0x1000007C)  returns 0x00 (0000ms, 134114ms total)
T1EBC 29482:795 JLINK_WriteReg(XPSR, 0x01000000)  returns 0x00 (0000ms, 134114ms total)
T1EBC 29482:795 JLINK_WriteReg(MSP, 0x10004000)  returns 0x00 (0000ms, 134114ms total)
T1EBC 29482:795 JLINK_WriteReg(PSP, 0x10004000)  returns 0x00 (0001ms, 134115ms total)
T1EBC 29482:796 JLINK_WriteReg(CFBP, 0x00000000)  returns 0x00 (0000ms, 134115ms total)
T1EBC 29482:796 JLINK_SetBPEx(Addr = 0x10000000, Type = 0xFFFFFFF2)  returns 0x00000009 (0000ms, 134115ms total)
T1EBC 29482:796 JLINK_Go() -- CPU_WriteMem(4 bytes @ 0xE0002000) -- CPU_ReadMem(4 bytes @ 0xE0001000) (0022ms, 134137ms total)
T1EBC 29482:818 JLINK_IsHalted()  returns FALSE (0001ms, 134138ms total)
T1EBC 29483:010 JLINK_IsHalted()  returns TRUE (0018ms, 134155ms total)
T1EBC 29483:028 JLINK_ReadReg(R15 (PC))  returns 0x10000000 (0000ms, 134137ms total)
T1EBC 29483:028 JLINK_ClrBPEx(BPHandle = 0x00000009)  returns 0x00 (0000ms, 134137ms total)
T1EBC 29483:028 JLINK_ReadReg(R0)  returns 0x00000000 (0000ms, 134137ms total)
T1EBC 29483:029 JLINK_WriteReg(R0, 0x00014000)  returns 0x00 (0000ms, 134137ms total)
T1EBC 29483:029 JLINK_WriteReg(R1, 0x00002000)  returns 0x00 (0000ms, 134137ms total)
T1EBC 29483:029 JLINK_WriteReg(R2, 0x000000FF)  returns 0x00 (0000ms, 134137ms total)
T1EBC 29483:029 JLINK_WriteReg(R3, 0x00000000)  returns 0x00 (0000ms, 134137ms total)
T1EBC 29483:029 JLINK_WriteReg(R4, 0x00000000)  returns 0x00 (0000ms, 134137ms total)
T1EBC 29483:029 JLINK_WriteReg(R5, 0x00000000)  returns 0x00 (0000ms, 134137ms total)
T1EBC 29483:029 JLINK_WriteReg(R6, 0x00000000)  returns 0x00 (0000ms, 134137ms total)
T1EBC 29483:029 JLINK_WriteReg(R7, 0x00000000)  returns 0x00 (0000ms, 134137ms total)
T1EBC 29483:029 JLINK_WriteReg(R8, 0x00000000)  returns 0x00 (0000ms, 134137ms total)
T1EBC 29483:029 JLINK_WriteReg(R9, 0x1000012C)  returns 0x00 (0000ms, 134137ms total)
T1EBC 29483:029 JLINK_WriteReg(R10, 0x00000000)  returns 0x00 (0000ms, 134137ms total)
T1EBC 29483:029 JLINK_WriteReg(R11, 0x00000000)  returns 0x00 (0000ms, 134137ms total)
T1EBC 29483:029 JLINK_WriteReg(R12, 0x00000000)  returns 0x00 (0000ms, 134137ms total)
T1EBC 29483:029 JLINK_WriteReg(R13 (SP), 0x10004000)  returns 0x00 (0000ms, 134137ms total)
T1EBC 29483:029 JLINK_WriteReg(R14, 0x10000001)  returns 0x00 (0000ms, 134137ms total)
T1EBC 29483:029 JLINK_WriteReg(R15 (PC), 0x10000020)  returns 0x00 (0000ms, 134137ms total)
T1EBC 29483:029 JLINK_WriteReg(XPSR, 0x01000000)  returns 0x00 (0000ms, 134137ms total)
T1EBC 29483:029 JLINK_WriteReg(MSP, 0x10004000)  returns 0x00 (0000ms, 134137ms total)
T1EBC 29483:029 JLINK_WriteReg(PSP, 0x10004000)  returns 0x00 (0000ms, 134137ms total)
T1EBC 29483:029 JLINK_WriteReg(CFBP, 0x00000000)  returns 0x00 (0000ms, 134137ms total)
T1EBC 29483:029 JLINK_SetBPEx(Addr = 0x10000000, Type = 0xFFFFFFF2)  returns 0x0000000A (0000ms, 134137ms total)
T1EBC 29483:029 JLINK_Go() -- CPU_WriteMem(4 bytes @ 0xE0002000) -- CPU_ReadMem(4 bytes @ 0xE0001000) (0007ms, 134144ms total)
T1EBC 29483:037 JLINK_IsHalted()  returns TRUE (0004ms, 134148ms total)
T1EBC 29483:041 JLINK_ReadReg(R15 (PC))  returns 0x10000000 (0000ms, 134144ms total)
T1EBC 29483:041 JLINK_ClrBPEx(BPHandle = 0x0000000A)  returns 0x00 (0000ms, 134144ms total)
T1EBC 29483:041 JLINK_ReadReg(R0)  returns 0x00000001 (0000ms, 134144ms total)
T1EBC 29483:041 JLINK_WriteReg(R0, 0x00014000)  returns 0x00 (0000ms, 134144ms total)
T1EBC 29483:041 JLINK_WriteReg(R1, 0x00002000)  returns 0x00 (0000ms, 134144ms total)
T1EBC 29483:041 JLINK_WriteReg(R2, 0x000000FF)  returns 0x00 (0000ms, 134144ms total)
T1EBC 29483:041 JLINK_WriteReg(R3, 0x00000000)  returns 0x00 (0000ms, 134144ms total)
T1EBC 29483:041 JLINK_WriteReg(R4, 0x00000000)  returns 0x00 (0000ms, 134144ms total)
T1EBC 29483:041 JLINK_WriteReg(R5, 0x00000000)  returns 0x00 (0000ms, 134144ms total)
T1EBC 29483:041 JLINK_WriteReg(R6, 0x00000000)  returns 0x00 (0000ms, 134144ms total)
T1EBC 29483:041 JLINK_WriteReg(R7, 0x00000000)  returns 0x00 (0000ms, 134144ms total)
T1EBC 29483:041 JLINK_WriteReg(R8, 0x00000000)  returns 0x00 (0000ms, 134144ms total)
T1EBC 29483:041 JLINK_WriteReg(R9, 0x1000012C)  returns 0x00 (0000ms, 134144ms total)
T1EBC 29483:041 JLINK_WriteReg(R10, 0x00000000)  returns 0x00 (0000ms, 134144ms total)
T1EBC 29483:041 JLINK_WriteReg(R11, 0x00000000)  returns 0x00 (0000ms, 134144ms total)
T1EBC 29483:041 JLINK_WriteReg(R12, 0x00000000)  returns 0x00 (0000ms, 134144ms total)
T1EBC 29483:041 JLINK_WriteReg(R13 (SP), 0x10004000)  returns 0x00 (0000ms, 134144ms total)
T1EBC 29483:041 JLINK_WriteReg(R14, 0x10000001)  returns 0x00 (0000ms, 134144ms total)
T1EBC 29483:041 JLINK_WriteReg(R15 (PC), 0x1000007C)  returns 0x00 (0000ms, 134144ms total)
T1EBC 29483:041 JLINK_WriteReg(XPSR, 0x01000000)  returns 0x00 (0000ms, 134144ms total)
T1EBC 29483:041 JLINK_WriteReg(MSP, 0x10004000)  returns 0x00 (0000ms, 134144ms total)
T1EBC 29483:041 JLINK_WriteReg(PSP, 0x10004000)  returns 0x00 (0000ms, 134144ms total)
T1EBC 29483:041 JLINK_WriteReg(CFBP, 0x00000000)  returns 0x00 (0000ms, 134144ms total)
T1EBC 29483:041 JLINK_SetBPEx(Addr = 0x10000000, Type = 0xFFFFFFF2)  returns 0x0000000B (0000ms, 134144ms total)
T1EBC 29483:041 JLINK_Go() -- CPU_WriteMem(4 bytes @ 0xE0002000) -- CPU_ReadMem(4 bytes @ 0xE0001000) (0021ms, 134165ms total)
T1EBC 29483:062 JLINK_IsHalted()  returns FALSE (0003ms, 134168ms total)
T1EBC 29483:087 JLINK_IsHalted()  returns TRUE (0004ms, 134169ms total)
T1EBC 29483:091 JLINK_ReadReg(R15 (PC))  returns 0x10000000 (0000ms, 134165ms total)
T1EBC 29483:091 JLINK_ClrBPEx(BPHandle = 0x0000000B)  returns 0x00 (0000ms, 134165ms total)
T1EBC 29483:091 JLINK_ReadReg(R0)  returns 0x00000000 (0000ms, 134165ms total)
T1EBC 29483:091 JLINK_WriteReg(R0, 0x00016000)  returns 0x00 (0000ms, 134165ms total)
T1EBC 29483:091 JLINK_WriteReg(R1, 0x00002000)  returns 0x00 (0000ms, 134165ms total)
T1EBC 29483:091 JLINK_WriteReg(R2, 0x000000FF)  returns 0x00 (0000ms, 134165ms total)
T1EBC 29483:091 JLINK_WriteReg(R3, 0x00000000)  returns 0x00 (0000ms, 134165ms total)
T1EBC 29483:091 JLINK_WriteReg(R4, 0x00000000)  returns 0x00 (0000ms, 134165ms total)
T1EBC 29483:091 JLINK_WriteReg(R5, 0x00000000)  returns 0x00 (0000ms, 134165ms total)
T1EBC 29483:091 JLINK_WriteReg(R6, 0x00000000)  returns 0x00 (0000ms, 134165ms total)
T1EBC 29483:091 JLINK_WriteReg(R7, 0x00000000)  returns 0x00 (0000ms, 134165ms total)
T1EBC 29483:091 JLINK_WriteReg(R8, 0x00000000)  returns 0x00 (0000ms, 134165ms total)
T1EBC 29483:091 JLINK_WriteReg(R9, 0x1000012C)  returns 0x00 (0000ms, 134165ms total)
T1EBC 29483:091 JLINK_WriteReg(R10, 0x00000000)  returns 0x00 (0000ms, 134165ms total)
T1EBC 29483:091 JLINK_WriteReg(R11, 0x00000000)  returns 0x00 (0000ms, 134165ms total)
T1EBC 29483:091 JLINK_WriteReg(R12, 0x00000000)  returns 0x00 (0000ms, 134165ms total)
T1EBC 29483:091 JLINK_WriteReg(R13 (SP), 0x10004000)  returns 0x00 (0000ms, 134165ms total)
T1EBC 29483:091 JLINK_WriteReg(R14, 0x10000001)  returns 0x00 (0000ms, 134165ms total)
T1EBC 29483:091 JLINK_WriteReg(R15 (PC), 0x10000020)  returns 0x00 (0000ms, 134165ms total)
T1EBC 29483:091 JLINK_WriteReg(XPSR, 0x01000000)  returns 0x00 (0000ms, 134165ms total)
T1EBC 29483:091 JLINK_WriteReg(MSP, 0x10004000)  returns 0x00 (0000ms, 134165ms total)
T1EBC 29483:091 JLINK_WriteReg(PSP, 0x10004000)  returns 0x00 (0000ms, 134165ms total)
T1EBC 29483:091 JLINK_WriteReg(CFBP, 0x00000000)  returns 0x00 (0000ms, 134165ms total)
T1EBC 29483:091 JLINK_SetBPEx(Addr = 0x10000000, Type = 0xFFFFFFF2)  returns 0x0000000C (0000ms, 134165ms total)
T1EBC 29483:091 JLINK_Go() -- CPU_WriteMem(4 bytes @ 0xE0002000) -- CPU_ReadMem(4 bytes @ 0xE0001000) (0006ms, 134171ms total)
T1EBC 29483:097 JLINK_IsHalted()  returns TRUE (0021ms, 134192ms total)
T1EBC 29483:118 JLINK_ReadReg(R15 (PC))  returns 0x10000000 (0000ms, 134171ms total)
T1EBC 29483:118 JLINK_ClrBPEx(BPHandle = 0x0000000C)  returns 0x00 (0000ms, 134171ms total)
T1EBC 29483:118 JLINK_ReadReg(R0)  returns 0x00000001 (0000ms, 134171ms total)
T1EBC 29483:118 JLINK_WriteReg(R0, 0x00016000)  returns 0x00 (0000ms, 134171ms total)
T1EBC 29483:118 JLINK_WriteReg(R1, 0x00002000)  returns 0x00 (0000ms, 134171ms total)
T1EBC 29483:118 JLINK_WriteReg(R2, 0x000000FF)  returns 0x00 (0000ms, 134171ms total)
T1EBC 29483:118 JLINK_WriteReg(R3, 0x00000000)  returns 0x00 (0000ms, 134171ms total)
T1EBC 29483:118 JLINK_WriteReg(R4, 0x00000000)  returns 0x00 (0000ms, 134171ms total)
T1EBC 29483:118 JLINK_WriteReg(R5, 0x00000000)  returns 0x00 (0000ms, 134171ms total)
T1EBC 29483:118 JLINK_WriteReg(R6, 0x00000000)  returns 0x00 (0000ms, 134171ms total)
T1EBC 29483:118 JLINK_WriteReg(R7, 0x00000000)  returns 0x00 (0001ms, 134172ms total)
T1EBC 29483:119 JLINK_WriteReg(R8, 0x00000000)  returns 0x00 (0000ms, 134172ms total)
T1EBC 29483:119 JLINK_WriteReg(R9, 0x1000012C)  returns 0x00 (0000ms, 134172ms total)
T1EBC 29483:119 JLINK_WriteReg(R10, 0x00000000)  returns 0x00 (0000ms, 134172ms total)
T1EBC 29483:119 JLINK_WriteReg(R11, 0x00000000)  returns 0x00 (0000ms, 134172ms total)
T1EBC 29483:119 JLINK_WriteReg(R12, 0x00000000)  returns 0x00 (0000ms, 134172ms total)
T1EBC 29483:119 JLINK_WriteReg(R13 (SP), 0x10004000)  returns 0x00 (0000ms, 134172ms total)
T1EBC 29483:119 JLINK_WriteReg(R14, 0x10000001)  returns 0x00 (0000ms, 134172ms total)
T1EBC 29483:119 JLINK_WriteReg(R15 (PC), 0x1000007C)  returns 0x00 (0000ms, 134172ms total)
T1EBC 29483:119 JLINK_WriteReg(XPSR, 0x01000000)  returns 0x00 (0000ms, 134172ms total)
T1EBC 29483:119 JLINK_WriteReg(MSP, 0x10004000)  returns 0x00 (0000ms, 134172ms total)
T1EBC 29483:119 JLINK_WriteReg(PSP, 0x10004000)  returns 0x00 (0000ms, 134172ms total)
T1EBC 29483:119 JLINK_WriteReg(CFBP, 0x00000000)  returns 0x00 (0000ms, 134172ms total)
T1EBC 29483:119 JLINK_SetBPEx(Addr = 0x10000000, Type = 0xFFFFFFF2)  returns 0x0000000D (0000ms, 134172ms total)
T1EBC 29483:119 JLINK_Go() -- CPU_WriteMem(4 bytes @ 0xE0002000) -- CPU_ReadMem(4 bytes @ 0xE0001000) (0004ms, 134176ms total)
T1EBC 29483:123 JLINK_IsHalted()  returns FALSE (0001ms, 134177ms total)
T1EBC 29483:130 JLINK_IsHalted()  returns TRUE (0015ms, 134191ms total)
T1EBC 29483:145 JLINK_ReadReg(R15 (PC))  returns 0x10000000 (0000ms, 134176ms total)
T1EBC 29483:147 JLINK_ClrBPEx(BPHandle = 0x0000000D)  returns 0x00 (0000ms, 134176ms total)
T1EBC 29483:147 JLINK_ReadReg(R0)  returns 0x00000000 (0000ms, 134176ms total)
T1EBC 29483:147 JLINK_WriteReg(R0, 0x00018000)  returns 0x00 (0000ms, 134176ms total)
T1EBC 29483:147 JLINK_WriteReg(R1, 0x00002000)  returns 0x00 (0000ms, 134176ms total)
T1EBC 29483:148 JLINK_WriteReg(R2, 0x000000FF)  returns 0x00 (0000ms, 134176ms total)
T1EBC 29483:148 JLINK_WriteReg(R3, 0x00000000)  returns 0x00 (0000ms, 134176ms total)
T1EBC 29483:148 JLINK_WriteReg(R4, 0x00000000)  returns 0x00 (0000ms, 134176ms total)
T1EBC 29483:148 JLINK_WriteReg(R5, 0x00000000)  returns 0x00 (0000ms, 134176ms total)
T1EBC 29483:148 JLINK_WriteReg(R6, 0x00000000)  returns 0x00 (0000ms, 134176ms total)
T1EBC 29483:148 JLINK_WriteReg(R7, 0x00000000)  returns 0x00 (0000ms, 134176ms total)
T1EBC 29483:148 JLINK_WriteReg(R8, 0x00000000)  returns 0x00 (0000ms, 134176ms total)
T1EBC 29483:148 JLINK_WriteReg(R9, 0x1000012C)  returns 0x00 (0000ms, 134176ms total)
T1EBC 29483:148 JLINK_WriteReg(R10, 0x00000000)  returns 0x00 (0000ms, 134176ms total)
T1EBC 29483:148 JLINK_WriteReg(R11, 0x00000000)  returns 0x00 (0000ms, 134176ms total)
T1EBC 29483:148 JLINK_WriteReg(R12, 0x00000000)  returns 0x00 (0000ms, 134176ms total)
T1EBC 29483:148 JLINK_WriteReg(R13 (SP), 0x10004000)  returns 0x00 (0000ms, 134176ms total)
T1EBC 29483:148 JLINK_WriteReg(R14, 0x10000001)  returns 0x00 (0000ms, 134176ms total)
T1EBC 29483:148 JLINK_WriteReg(R15 (PC), 0x10000020)  returns 0x00 (0000ms, 134176ms total)
T1EBC 29483:148 JLINK_WriteReg(XPSR, 0x01000000)  returns 0x00 (0000ms, 134176ms total)
T1EBC 29483:148 JLINK_WriteReg(MSP, 0x10004000)  returns 0x00 (0000ms, 134176ms total)
T1EBC 29483:148 JLINK_WriteReg(PSP, 0x10004000)  returns 0x00 (0000ms, 134176ms total)
T1EBC 29483:148 JLINK_WriteReg(CFBP, 0x00000000)  returns 0x00 (0000ms, 134176ms total)
T1EBC 29483:148 JLINK_SetBPEx(Addr = 0x10000000, Type = 0xFFFFFFF2)  returns 0x0000000E (0000ms, 134176ms total)
T1EBC 29483:148 JLINK_Go() -- CPU_WriteMem(4 bytes @ 0xE0002000) -- CPU_ReadMem(4 bytes @ 0xE0001000) (0007ms, 134183ms total)
T1EBC 29483:155 JLINK_IsHalted()  returns TRUE (0020ms, 134203ms total)
T1EBC 29483:175 JLINK_ReadReg(R15 (PC))  returns 0x10000000 (0000ms, 134183ms total)
T1EBC 29483:175 JLINK_ClrBPEx(BPHandle = 0x0000000E)  returns 0x00 (0000ms, 134183ms total)
T1EBC 29483:175 JLINK_ReadReg(R0)  returns 0x00000001 (0000ms, 134183ms total)
T1EBC 29483:175 JLINK_WriteReg(R0, 0x00018000)  returns 0x00 (0000ms, 134183ms total)
T1EBC 29483:175 JLINK_WriteReg(R1, 0x00002000)  returns 0x00 (0000ms, 134183ms total)
T1EBC 29483:176 JLINK_WriteReg(R2, 0x000000FF)  returns 0x00 (0000ms, 134184ms total)
T1EBC 29483:176 JLINK_WriteReg(R3, 0x00000000)  returns 0x00 (0000ms, 134184ms total)
T1EBC 29483:176 JLINK_WriteReg(R4, 0x00000000)  returns 0x00 (0000ms, 134184ms total)
T1EBC 29483:176 JLINK_WriteReg(R5, 0x00000000)  returns 0x00 (0000ms, 134184ms total)
T1EBC 29483:176 JLINK_WriteReg(R6, 0x00000000)  returns 0x00 (0000ms, 134184ms total)
T1EBC 29483:176 JLINK_WriteReg(R7, 0x00000000)  returns 0x00 (0000ms, 134184ms total)
T1EBC 29483:176 JLINK_WriteReg(R8, 0x00000000)  returns 0x00 (0000ms, 134184ms total)
T1EBC 29483:176 JLINK_WriteReg(R9, 0x1000012C)  returns 0x00 (0000ms, 134184ms total)
T1EBC 29483:176 JLINK_WriteReg(R10, 0x00000000)  returns 0x00 (0000ms, 134184ms total)
T1EBC 29483:176 JLINK_WriteReg(R11, 0x00000000)  returns 0x00 (0000ms, 134184ms total)
T1EBC 29483:176 JLINK_WriteReg(R12, 0x00000000)  returns 0x00 (0000ms, 134184ms total)
T1EBC 29483:176 JLINK_WriteReg(R13 (SP), 0x10004000)  returns 0x00 (0000ms, 134184ms total)
T1EBC 29483:176 JLINK_WriteReg(R14, 0x10000001)  returns 0x00 (0000ms, 134184ms total)
T1EBC 29483:176 JLINK_WriteReg(R15 (PC), 0x1000007C)  returns 0x00 (0000ms, 134184ms total)
T1EBC 29483:176 JLINK_WriteReg(XPSR, 0x01000000)  returns 0x00 (0000ms, 134184ms total)
T1EBC 29483:176 JLINK_WriteReg(MSP, 0x10004000)  returns 0x00 (0000ms, 134184ms total)
T1EBC 29483:176 JLINK_WriteReg(PSP, 0x10004000)  returns 0x00 (0000ms, 134184ms total)
T1EBC 29483:176 JLINK_WriteReg(CFBP, 0x00000000)  returns 0x00 (0000ms, 134184ms total)
T1EBC 29483:176 JLINK_SetBPEx(Addr = 0x10000000, Type = 0xFFFFFFF2)  returns 0x0000000F (0000ms, 134184ms total)
T1EBC 29483:176 JLINK_Go() -- CPU_WriteMem(4 bytes @ 0xE0002000) -- CPU_ReadMem(4 bytes @ 0xE0001000) (0005ms, 134189ms total)
T1EBC 29483:181 JLINK_IsHalted()  returns FALSE (0002ms, 134191ms total)
T1EBC 29483:185 JLINK_IsHalted()  returns TRUE (0018ms, 134207ms total)
T1EBC 29483:204 JLINK_ReadReg(R15 (PC))  returns 0x10000000 (0000ms, 134189ms total)
T1EBC 29483:204 JLINK_ClrBPEx(BPHandle = 0x0000000F)  returns 0x00 (0000ms, 134189ms total)
T1EBC 29483:204 JLINK_ReadReg(R0)  returns 0x00000000 (0000ms, 134189ms total)
T1EBC 29483:205 JLINK_WriteReg(R0, 0x0001A000)  returns 0x00 (0000ms, 134189ms total)
T1EBC 29483:205 JLINK_WriteReg(R1, 0x00002000)  returns 0x00 (0000ms, 134189ms total)
T1EBC 29483:205 JLINK_WriteReg(R2, 0x000000FF)  returns 0x00 (0000ms, 134189ms total)
T1EBC 29483:205 JLINK_WriteReg(R3, 0x00000000)  returns 0x00 (0000ms, 134189ms total)
T1EBC 29483:205 JLINK_WriteReg(R4, 0x00000000)  returns 0x00 (0000ms, 134189ms total)
T1EBC 29483:205 JLINK_WriteReg(R5, 0x00000000)  returns 0x00 (0000ms, 134189ms total)
T1EBC 29483:205 JLINK_WriteReg(R6, 0x00000000)  returns 0x00 (0000ms, 134189ms total)
T1EBC 29483:205 JLINK_WriteReg(R7, 0x00000000)  returns 0x00 (0000ms, 134189ms total)
T1EBC 29483:205 JLINK_WriteReg(R8, 0x00000000)  returns 0x00 (0000ms, 134189ms total)
T1EBC 29483:205 JLINK_WriteReg(R9, 0x1000012C)  returns 0x00 (0000ms, 134189ms total)
T1EBC 29483:205 JLINK_WriteReg(R10, 0x00000000)  returns 0x00 (0000ms, 134189ms total)
T1EBC 29483:205 JLINK_WriteReg(R11, 0x00000000)  returns 0x00 (0000ms, 134189ms total)
T1EBC 29483:205 JLINK_WriteReg(R12, 0x00000000)  returns 0x00 (0000ms, 134189ms total)
T1EBC 29483:205 JLINK_WriteReg(R13 (SP), 0x10004000)  returns 0x00 (0000ms, 134189ms total)
T1EBC 29483:205 JLINK_WriteReg(R14, 0x10000001)  returns 0x00 (0000ms, 134189ms total)
T1EBC 29483:205 JLINK_WriteReg(R15 (PC), 0x10000020)  returns 0x00 (0000ms, 134189ms total)
T1EBC 29483:205 JLINK_WriteReg(XPSR, 0x01000000)  returns 0x00 (0000ms, 134189ms total)
T1EBC 29483:205 JLINK_WriteReg(MSP, 0x10004000)  returns 0x00 (0000ms, 134189ms total)
T1EBC 29483:205 JLINK_WriteReg(PSP, 0x10004000)  returns 0x00 (0000ms, 134189ms total)
T1EBC 29483:205 JLINK_WriteReg(CFBP, 0x00000000)  returns 0x00 (0000ms, 134189ms total)
T1EBC 29483:205 JLINK_SetBPEx(Addr = 0x10000000, Type = 0xFFFFFFF2)  returns 0x00000010 (0000ms, 134189ms total)
T1EBC 29483:205 JLINK_Go() -- CPU_WriteMem(4 bytes @ 0xE0002000) -- CPU_ReadMem(4 bytes @ 0xE0001000) (0006ms, 134195ms total)
T1EBC 29483:211 JLINK_IsHalted()  returns TRUE (0022ms, 134217ms total)
T1EBC 29483:233 JLINK_ReadReg(R15 (PC))  returns 0x10000000 (0000ms, 134195ms total)
T1EBC 29483:233 JLINK_ClrBPEx(BPHandle = 0x00000010)  returns 0x00 (0000ms, 134195ms total)
T1EBC 29483:233 JLINK_ReadReg(R0)  returns 0x00000001 (0000ms, 134195ms total)
T1EBC 29483:233 JLINK_WriteReg(R0, 0x0001A000)  returns 0x00 (0000ms, 134195ms total)
T1EBC 29483:233 JLINK_WriteReg(R1, 0x00002000)  returns 0x00 (0000ms, 134195ms total)
T1EBC 29483:233 JLINK_WriteReg(R2, 0x000000FF)  returns 0x00 (0000ms, 134195ms total)
T1EBC 29483:233 JLINK_WriteReg(R3, 0x00000000)  returns 0x00 (0000ms, 134195ms total)
T1EBC 29483:233 JLINK_WriteReg(R4, 0x00000000)  returns 0x00 (0000ms, 134195ms total)
T1EBC 29483:233 JLINK_WriteReg(R5, 0x00000000)  returns 0x00 (0000ms, 134195ms total)
T1EBC 29483:233 JLINK_WriteReg(R6, 0x00000000)  returns 0x00 (0000ms, 134195ms total)
T1EBC 29483:233 JLINK_WriteReg(R7, 0x00000000)  returns 0x00 (0000ms, 134195ms total)
T1EBC 29483:233 JLINK_WriteReg(R8, 0x00000000)  returns 0x00 (0000ms, 134195ms total)
T1EBC 29483:233 JLINK_WriteReg(R9, 0x1000012C)  returns 0x00 (0000ms, 134195ms total)
T1EBC 29483:233 JLINK_WriteReg(R10, 0x00000000)  returns 0x00 (0000ms, 134195ms total)
T1EBC 29483:233 JLINK_WriteReg(R11, 0x00000000)  returns 0x00 (0000ms, 134195ms total)
T1EBC 29483:233 JLINK_WriteReg(R12, 0x00000000)  returns 0x00 (0000ms, 134195ms total)
T1EBC 29483:233 JLINK_WriteReg(R13 (SP), 0x10004000)  returns 0x00 (0000ms, 134195ms total)
T1EBC 29483:233 JLINK_WriteReg(R14, 0x10000001)  returns 0x00 (0000ms, 134195ms total)
T1EBC 29483:233 JLINK_WriteReg(R15 (PC), 0x1000007C)  returns 0x00 (0000ms, 134195ms total)
T1EBC 29483:233 JLINK_WriteReg(XPSR, 0x01000000)  returns 0x00 (0000ms, 134195ms total)
T1EBC 29483:233 JLINK_WriteReg(MSP, 0x10004000)  returns 0x00 (0000ms, 134195ms total)
T1EBC 29483:233 JLINK_WriteReg(PSP, 0x10004000)  returns 0x00 (0000ms, 134195ms total)
T1EBC 29483:233 JLINK_WriteReg(CFBP, 0x00000000)  returns 0x00 (0000ms, 134195ms total)
T1EBC 29483:233 JLINK_SetBPEx(Addr = 0x10000000, Type = 0xFFFFFFF2)  returns 0x00000011 (0000ms, 134195ms total)
T1EBC 29483:233 JLINK_Go() -- CPU_WriteMem(4 bytes @ 0xE0002000) -- CPU_ReadMem(4 bytes @ 0xE0001000) (0006ms, 134201ms total)
T1EBC 29483:239 JLINK_IsHalted()  returns TRUE (0021ms, 134222ms total)
T1EBC 29483:260 JLINK_ReadReg(R15 (PC))  returns 0x10000000 (0000ms, 134201ms total)
T1EBC 29483:260 JLINK_ClrBPEx(BPHandle = 0x00000011)  returns 0x00 (0000ms, 134201ms total)
T1EBC 29483:260 JLINK_ReadReg(R0)  returns 0x00000000 (0000ms, 134201ms total)
T1EBC 29483:260 JLINK_WriteReg(R0, 0x0001C000)  returns 0x00 (0000ms, 134201ms total)
T1EBC 29483:260 JLINK_WriteReg(R1, 0x00002000)  returns 0x00 (0000ms, 134201ms total)
T1EBC 29483:260 JLINK_WriteReg(R2, 0x000000FF)  returns 0x00 (0000ms, 134201ms total)
T1EBC 29483:260 JLINK_WriteReg(R3, 0x00000000)  returns 0x00 (0000ms, 134201ms total)
T1EBC 29483:260 JLINK_WriteReg(R4, 0x00000000)  returns 0x00 (0000ms, 134201ms total)
T1EBC 29483:260 JLINK_WriteReg(R5, 0x00000000)  returns 0x00 (0000ms, 134201ms total)
T1EBC 29483:260 JLINK_WriteReg(R6, 0x00000000)  returns 0x00 (0000ms, 134201ms total)
T1EBC 29483:260 JLINK_WriteReg(R7, 0x00000000)  returns 0x00 (0000ms, 134201ms total)
T1EBC 29483:260 JLINK_WriteReg(R8, 0x00000000)  returns 0x00 (0000ms, 134201ms total)
T1EBC 29483:261 JLINK_WriteReg(R9, 0x1000012C)  returns 0x00 (0000ms, 134202ms total)
T1EBC 29483:261 JLINK_WriteReg(R10, 0x00000000)  returns 0x00 (0000ms, 134202ms total)
T1EBC 29483:261 JLINK_WriteReg(R11, 0x00000000)  returns 0x00 (0000ms, 134202ms total)
T1EBC 29483:261 JLINK_WriteReg(R12, 0x00000000)  returns 0x00 (0000ms, 134202ms total)
T1EBC 29483:261 JLINK_WriteReg(R13 (SP), 0x10004000)  returns 0x00 (0000ms, 134202ms total)
T1EBC 29483:261 JLINK_WriteReg(R14, 0x10000001)  returns 0x00 (0000ms, 134202ms total)
